Freq.	V(vout)
1.00000000000000e-001	-3.07910704304699e-013,-6.85581506600332e-012
1.12201845430196e-001	-3.87504627051833e-013,-7.68904088360494e-012
1.25892541179417e-001	-4.87630393629989e-013,-8.62257348206549e-012
1.41253754462275e-001	-6.13559306388349e-013,-9.66809285122178e-012
1.58489319246111e-001	-7.71901420460142e-013,-1.08384754791616e-011
1.77827941003892e-001	-9.70937049263179e-013,-1.21478475949644e-011
1.99526231496888e-001	-1.22102539999392e-012,-1.36116078642774e-011
2.23872113856834e-001	-1.53510536026458e-012,-1.52464014609488e-011
2.51188643150958e-001	-1.92930459050501e-012,-1.70700200175682e-011
2.81838293126445e-001	-2.42367302572779e-012,-1.91011920043337e-011
3.16227766016838e-001	-3.04305461028601e-012,-2.13592149961133e-011
3.54813389233575e-001	-3.81810495308211e-012,-2.38633645224079e-011
3.98107170553497e-001	-4.78645015754857e-012,-2.66319935030160e-011
4.46683592150963e-001	-5.99395984455915e-012,-2.96812121125204e-011
5.01187233627272e-001	-7.49607059293444e-012,-3.30230121869053e-011
5.62341325190348e-001	-9.35903871795529e-012,-3.66626774841426e-011
6.30957344480192e-001	-1.16609169999222e-011,-4.05953100267969e-011
7.07945784384137e-001	-1.44919334867779e-011,-4.48013186113546e-011
7.94328234724280e-001	-1.79538019218786e-011,-4.92407821049138e-011
8.91250938133744e-001	-2.21573250778752e-011,-5.38467502312046e-011
9.99999999999999e-001	-2.72174995070776e-011,-5.85178164364311e-011
1.12201845430196e+000	-3.32452632303215e-011,-6.31107221129931e-011
1.25892541179417e+000	-4.03351596401352e-011,-6.74343259010365e-011
1.41253754462275e+000	-4.85486661058203e-011,-7.12469166665833e-011
1.58489319246111e+000	-5.78938813525749e-011,-7.42593622455498e-011
1.77827941003892e+000	-6.83036879586640e-011,-7.61466287877595e-011
1.99526231496888e+000	-7.96161536873890e-011,-7.65693756531396e-011
2.23872113856834e+000	-9.15622115944849e-011,-7.52053772943448e-011
2.51188643150958e+000	-1.03765732188955e-010,-7.17876575996390e-011
2.81838293126445e+000	-1.15759311223010e-010,-6.61433255759756e-011
3.16227766016837e+000	-1.27015534703466e-010,-5.82255335687803e-011
3.54813389233575e+000	-1.36989312095957e-010,-4.81318654238763e-011
3.98107170553496e+000	-1.45163931250973e-010,-3.61058218290005e-011
4.46683592150962e+000	-1.51093232782347e-010,-2.25225146234685e-011
5.01187233627271e+000	-1.54434767973045e-010,-7.86311534775636e-012
5.62341325190348e+000	-1.54972519238808e-010,7.31648224130227e-012
6.30957344480192e+000	-1.52630667467413e-010,2.24189384048928e-011
7.07945784384136e+000	-1.47480586940797e-010,3.68395816919652e-011
7.94328234724279e+000	-1.39741712885275e-010,5.00022505409989e-011
8.91250938133743e+000	-1.29774412954543e-010,6.13976373831952e-011
9.99999999999997e+000	-1.18061344951002e-010,7.06225613124624e-011
1.12201845430196e+001	-1.05174496432455e-010,7.74152117280316e-011
1.25892541179416e+001	-9.17284717288000e-011,8.16790126450430e-011
1.41253754462275e+001	-7.83253459411605e-011,8.34881540138950e-011
1.58489319246111e+001	-6.55002349452914e-011,8.30714565714236e-011
1.77827941003892e+001	-5.36776036799857e-011,8.07767232922086e-011
1.99526231496887e+001	-4.31457485557606e-011,7.70226861594459e-011
2.23872113856833e+001	-3.40520931631663e-011,7.22480920224344e-011
2.51188643150957e+001	-2.64170051025382e-011,6.68668388790833e-011
2.81838293126444e+001	-2.01604388074877e-011,6.12352178151862e-011
3.16227766016837e+001	-1.51344528132484e-011,5.56336521988086e-011
3.54813389233574e+001	-1.11552631496817e-011,5.02620554150877e-011
3.98107170553496e+001	-8.03028342873642e-012,4.52457235892139e-011
4.46683592150961e+001	-5.57782218028171e-012,4.06477345266494e-011
5.01187233627270e+001	-3.63913587837767e-012,3.64839932685399e-011
5.62341325190347e+001	-2.08395734714178e-012,3.27379812963940e-011
6.30957344480191e+001	-8.11282565790271e-013,2.93734702383944e-011
7.07945784384135e+001	2.52795452549987e-013,2.63445455210846e-011
7.94328234724278e+001	1.15881015487966e-012,2.36030099650064e-011
8.91250938133742e+001	1.93830970419435e-012,2.11035566891848e-011
9.99999999999995e+001	2.60841619588934e-012,1.88071199750712e-011
1.12201845430196e+002	3.17626904236330e-012,1.66827033515717e-011
1.25892541179416e+002	3.64311417763330e-012,1.47078968689896e-011
1.41253754462275e+002	4.00779240759209e-012,1.28682994375540e-011
1.58489319246111e+002	4.26941036863863e-012,1.11561338441177e-011
1.77827941003891e+002	4.42907854722288e-012,9.56840925842630e-012
1.99526231496887e+002	4.49073985826808e-012,8.10499202558045e-012
2.23872113856833e+002	4.46123592031816e-012,6.76688409297984e-012
2.51188643150957e+002	4.34983625400397e-012,5.55490794986813e-012
2.81838293126444e+002	4.16748648709913e-012,4.46888458886214e-012
3.16227766016836e+002	3.92601902088302e-012,3.50727968541547e-012
3.54813389233574e+002	3.63751069126557e-012,2.66719701970687e-012
3.98107170553495e+002	3.31387206854530e-012,1.94454380674424e-012
4.46683592150961e+002	2.96664273958112e-012,1.33420398363015e-012
5.01187233627270e+002	2.60689260650779e-012,8.30126998649803e-013
5.62341325190346e+002	2.24512078705412e-012,4.25330520655787e-013
6.30957344480190e+002	1.89109075415322e-012,1.11876444481992e-013
7.07945784384134e+002	1.55360176347258e-012,-1.19111994677777e-013
7.94328234724277e+002	1.24023427277166e-012,-2.77352952066040e-013
8.91250938133740e+002	9.57111694651740e-013,-3.73223023502169e-013
9.99999999999994e+002	7.08708453507783e-013,-4.17500902895703e-013
1.12201845430196e+003	4.97723605183589e-013,-4.21053458794507e-013
1.25892541179416e+003	3.25035842227703e-013,-3.94480696988854e-013
1.41253754462275e+003	1.89754459195041e-013,-3.47740589760911e-013
1.58489319246110e+003	8.93761347655783e-014,-2.89781887933266e-013
1.77827941003891e+003	2.00479552932981e-014,-2.28218753157261e-013
1.99526231496887e+003	-2.30754304729337e-014,-1.69082693533006e-013
2.23872113856832e+003	-4.54062319543910e-014,-1.16683751565644e-013
2.51188643150956e+003	-5.24678058101195e-014,-7.36036700941111e-014
2.81838293126443e+003	-4.94561718567694e-014,-4.08289690318591e-014
3.16227766016836e+003	-4.08688950938169e-014,-1.80128698395705e-014
3.54813389233573e+003	-3.02457524120295e-014,-3.83472398807689e-015
3.98107170553494e+003	-2.00506546529937e-014,3.59175697213889e-015
4.46683592150960e+003	-1.17016782648285e-014,6.31994231234119e-015
5.01187233627269e+003	-5.72993503021508e-015,6.23826808017507e-015
5.62341325190345e+003	-2.02459111551568e-015,4.84736591669787e-015
6.30957344480189e+003	-1.07320306295878e-016,3.16436582424187e-015
7.07945784384133e+003	6.20394840844499e-016,1.74373873904260e-015
7.94328234724276e+003	6.98891115790264e-016,7.79728395552872e-016
8.91250938133739e+003	5.17907278166930e-016,2.43107300445001e-016
9.99999999999992e+003	3.01164421400880e-016,8.12866916073863e-018
1.12201845430195e+004	1.40913278480983e-016,-5.85510353351045e-017
1.25892541179416e+004	5.05585778982724e-017,-5.43180075088243e-017
1.41253754462274e+004	1.08242742727682e-017,-3.28607630770719e-017
1.58489319246110e+004	-1.75770291251556e-018,-1.53487608880922e-017
1.77827941003891e+004	-3.41645631277821e-018,-5.65161774856031e-018
1.99526231496886e+004	-2.22558916269497e-018,-1.53387768397439e-018
2.23872113856832e+004	-1.04122585183520e-018,-1.99693513262991e-019
2.51188643150956e+004	-3.90281090907473e-019,8.37406302799713e-020
2.81838293126443e+004	-1.19655903017059e-019,8.11583555115132e-020
3.16227766016835e+004	-2.89043096658075e-020,4.14419637440163e-020
3.54813389233572e+004	-4.46160505873431e-021,1.64979697816089e-020
3.98107170553494e+004	3.28417003654946e-022,5.60538052120713e-021
4.46683592150959e+004	6.30323691055621e-022,1.68406354776083e-021
5.01187233627268e+004	3.33918224165846e-022,4.53583307870407e-022
5.62341325190344e+004	1.34335407831736e-022,1.09204457657077e-022
6.30957344480187e+004	4.71353065249097e-023,2.28277800019291e-023
7.07945784384131e+004	1.51843731202518e-023,3.72332970449951e-024
7.94328234724274e+004	4.61044854619211e-024,2.29183061496809e-025
8.91250938133737e+004	1.34055642585204e-024,-1.65388073873674e-025
9.99999999999990e+004	3.77245988762635e-025,-1.07756794963734e-025
1.12201845430195e+005	1.03517538908477e-025,-4.60050382197336e-026
1.25892541179415e+005	2.78503638132836e-026,-1.68484506215199e-026
1.41253754462274e+005	7.37643139471701e-027,-5.69120833440464e-027
1.58489319246110e+005	1.92924609246055e-027,-1.82892924947363e-027
1.77827941003891e+005	4.99395548825164e-028,-5.68405207293423e-028
1.99526231496886e+005	1.28156456351406e-028,-1.72526306529205e-028
2.23872113856832e+005	3.26421416082310e-029,-5.14705062236866e-029
2.51188643150955e+005	8.25796234078468e-030,-1.51587801154510e-029
2.81838293126442e+005	2.07568933316013e-030,-4.42100758971924e-030
3.16227766016835e+005	5.18337259935020e-031,-1.27971644155576e-030
3.54813389233572e+005	1.28528615623470e-031,-3.68276270915720e-031
3.98107170553493e+005	3.16137764551961e-032,-1.05500066507390e-031
4.46683592150958e+005	7.70018137415028e-033,-3.01140886054765e-032
5.01187233627267e+005	1.85232803322276e-033,-8.57125246552635e-033
5.62341325190343e+005	4.38264635630210e-034,-2.43399684292093e-033
6.30957344480186e+005	1.01323091476279e-034,-6.89892307623458e-034
7.07945784384130e+005	2.26384106297848e-035,-1.95238544005353e-034
7.94328234724273e+005	4.78979798907008e-036,-5.51787610621189e-035
8.91250938133736e+005	9.18548746747867e-037,-1.55764183514938e-035
1.00000000000000e+006	1.40692157241509e-037,-4.39229891771706e-036
