Freq.	V(vout)
1.00000000000000e-001	-1.24230479938838e-013,-4.57944914480357e-012
1.12201845430196e-001	-1.56375637751078e-013,-5.13738666298978e-012
1.25892541179417e-001	-1.96831562769984e-013,-5.76305676134704e-012
1.41253754462275e-001	-2.47742862812880e-013,-6.46458156072002e-012
1.58489319246111e-001	-3.11805202028521e-013,-7.25101565417356e-012
1.77827941003892e-001	-3.92405514743146e-013,-8.13243588520511e-012
1.99526231496888e-001	-4.93797090089049e-013,-9.12003230673667e-012
2.23872113856834e-001	-6.21317726768431e-013,-1.02261965312794e-011
2.51188643150958e-001	-7.81660804984886e-013,-1.14646016731354e-011
2.81838293126445e-001	-9.83210927313786e-013,-1.28502652483541e-011
3.16227766016838e-001	-1.23645763521244e-012,-1.43995824408309e-011
3.54813389233575e-001	-1.55450239952397e-012,-1.61303116822867e-011
3.98107170553497e-001	-1.95367522730700e-012,-1.80614870571391e-011
4.46683592150963e-001	-2.45427717397321e-012,-2.02132220751791e-011
5.01187233627272e-001	-3.08146274583612e-012,-2.26063562620066e-011
5.62341325190348e-001	-3.86626998678153e-012,-2.52618792787981e-011
6.30957344480192e-001	-4.84679351329683e-012,-2.82000466830235e-011
7.07945784384137e-001	-6.06947339085278e-012,-3.14390774989373e-011
7.94328234724280e-001	-7.59043580205561e-012,-3.49932984743164e-011
8.91250938133744e-001	-9.47676407625896e-012,-3.88705778964945e-011
9.99999999999999e-001	-1.18074945392902e-011,-4.30688820960270e-011
1.12201845430196e+000	-1.46740160338946e-011,-4.75718056824961e-011
1.25892541179417e+000	-1.81794056817620e-011,-5.23429959290225e-011
1.41253754462275e+000	-2.24360700484514e-011,-5.73195450762121e-011
1.58489319246111e+000	-2.75609170576208e-011,-6.24046986958952e-011
1.77827941003892e+000	-3.36672315131948e-011,-6.74606518044692e-011
1.99526231496888e+000	-4.08525790010275e-011,-7.23027690033614e-011
2.23872113856834e+000	-4.91825603613651e-011,-7.66971840120464e-011
2.51188643150958e+000	-5.86711983057811e-011,-8.03641987685185e-011
2.81838293126445e+000	-6.92601463044981e-011,-8.29898728840040e-011
3.16227766016837e+000	-8.08004920972744e-011,-8.42472839411532e-011
3.54813389233575e+000	-9.30420730645741e-011,-8.38269346806735e-011
3.98107170553496e+000	-1.05635112858509e-010,-8.14729491354390e-011
4.46683592150962e+000	-1.18147030006532e-010,-7.70189574771956e-011
5.01187233627271e+000	-1.30093640741224e-010,-7.04162620363134e-011
5.62341325190348e+000	-1.40979905702108e-010,-6.17480410305488e-011
6.30957344480192e+000	-1.50342669772648e-010,-5.12268847504843e-011
7.07945784384136e+000	-1.57787853962056e-010,-3.91774249016159e-011
7.94328234724279e+000	-1.63017207644199e-010,-2.60091718803123e-011
8.91250938133743e+000	-1.65843536763023e-010,-1.21855330123723e-011
9.99999999999997e+000	-1.66196345775382e-010,1.80658959709799e-012
1.12201845430196e+001	-1.64120815257790e-010,1.54849140517820e-011
1.25892541179416e+001	-1.59771994651227e-010,2.83980272925556e-011
1.41253754462275e+001	-1.53404102307585e-010,4.01506253016802e-011
1.58489319246111e+001	-1.45353381491000e-010,5.04272664524381e-011
1.77827941003892e+001	-1.36013189619635e-010,5.90119956145256e-011
1.99526231496887e+001	-1.25802065365479e-010,6.57996987282952e-011
2.23872113856833e+001	-1.15128460052380e-010,7.07954488358863e-011
2.51188643150957e+001	-1.04358014212476e-010,7.41006031634026e-011
2.81838293126444e+001	-9.37893902267964e-011,7.58879634033880e-011
3.16227766016837e+001	-8.36425544672716e-011,7.63712489606432e-011
3.54813389233574e+001	-7.40600470202645e-011,7.57751957917273e-011
3.98107170553496e+001	-6.51186569982318e-011,7.43115999391665e-011
4.46683592150961e+001	-5.68470844661856e-011,7.21643404965390e-011
5.01187233627270e+001	-4.92448420636033e-011,6.94838903627208e-011
5.62341325190347e+001	-4.22984483177028e-011,6.63897925703235e-011
6.30957344480191e+001	-3.59923609084986e-011,6.29783116501464e-011
7.07945784384135e+001	-3.03137095681084e-011,5.93319548783930e-011
7.94328234724278e+001	-2.52514717250733e-011,5.55277533622191e-011
8.91250938133742e+001	-2.07920316652098e-011,5.16420636347693e-011
9.99999999999995e+001	-1.69137530357778e-011,4.77510367535200e-011
1.12201845430196e+002	-1.35830384979090e-011,4.39274109749632e-011
1.25892541179416e+002	-1.07534127001538e-011,4.02353935163410e-011
1.41253754462275e+002	-8.36785435469744e-012,3.67257288364550e-011
1.58489319246111e+002	-6.36347156754388e-012,3.34325925110566e-011
1.77827941003891e+002	-4.67705485094541e-012,3.03730372908385e-011
1.99526231496887e+002	-3.25011535267487e-012,2.75488092473054e-011
2.23872113856833e+002	-2.03250068250460e-012,2.49497739907114e-011
2.51188643150957e+002	-9.84264506729299e-013,2.25580281200642e-011
2.81838293126444e+002	-7.59196532776658e-014,2.03519084191228e-011
3.16227766016836e+002	7.12551284486587e-013,1.83093754409025e-011
3.54813389233574e+002	1.39348289948773e-012,1.64105046710288e-011
3.98107170553495e+002	1.97369197360570e-012,1.46390115096497e-011
4.46683592150961e+002	2.45666337957119e-012,1.29828691574577e-011
5.01187233627270e+002	2.84447633316358e-012,1.14341729696844e-011
5.62341325190346e+002	3.13928207170484e-012,9.98847082873974e-012
6.30957344480190e+002	3.34425029434380e-012,8.64380918004962e-012
7.07945784384134e+002	3.46400744595392e-012,7.39972865433934e-012
7.94328234724277e+002	3.50467119960926e-012,6.25638559967031e-012
8.91250938133740e+002	3.47362549481976e-012,5.21389648351508e-012
9.99999999999994e+002	3.37917905841994e-012,4.27192567332603e-012
1.12201845430196e+003	3.23021993401436e-012,3.42948020042150e-012
1.25892541179416e+003	3.03593406046609e-012,2.68484337396033e-012
1.41253754462275e+003	2.80560910121720e-012,2.03557200787420e-012
1.58489319246110e+003	2.54850528200378e-012,1.47849672195574e-012
1.77827941003891e+003	2.27375217125394e-012,1.00969484161770e-012
1.99526231496887e+003	1.99022948021088e-012,6.24438935692995e-013
2.23872113856832e+003	1.70640744597898e-012,3.17147281199219e-013
2.51188643150956e+003	1.43014610230160e-012,8.13681024883289e-014
2.81838293126443e+003	1.16847013189153e-012,-9.01792551518381e-014
3.16227766016836e+003	9.27342317982486e-013,-2.05495944106265e-013
3.54813389233573e+003	7.11457872508975e-013,-2.73127149392886e-013
3.98107170553494e+003	5.24080340796693e-013,-3.01921960679621e-013
4.46683592150960e+003	3.66939692346754e-013,-3.00738872169166e-013
5.01187233627269e+003	2.40212655907781e-013,-2.78113279791905e-013
5.62341325190345e+003	1.42601495908700e-013,-2.41912103198737e-013
6.30957344480189e+003	7.15189252493274e-014,-1.99008713322495e-013
7.07945784384133e+003	2.33740134840339e-014,-1.55016103860824e-013
7.94328234724276e+003	-6.06177478143990e-015,-1.14115423663970e-013
8.91250938133739e+003	-2.12452929029237e-014,-7.90088123529740e-014
9.99999999999992e+003	-2.64585513283999e-014,-5.10093973139498e-014
1.12201845430195e+004	-2.54656077304788e-014,-3.02589727040576e-014
1.25892541179416e+004	-2.12764877174754e-014,-1.60397240654006e-014
1.41253754462274e+004	-1.60459289091702e-014,-7.12705922475342e-015
1.58489319246110e+004	-1.11069029941051e-014,-2.12305986676684e-015
1.77827941003891e+004	-7.11021937453344e-015,2.81706328630889e-016
1.99526231496886e+004	-4.22160869418657e-015,1.14792363842420e-015
2.23872113856832e+004	-2.32343408127351e-015,1.22995688636325e-015
2.51188643150956e+004	-1.18000337520232e-015,9.97559061295808e-016
2.81838293126443e+004	-5.46811898196587e-016,7.01350046883011e-016
3.16227766016835e+004	-2.25132260453921e-016,4.48631889005300e-016
3.54813389233572e+004	-7.66000002916936e-017,2.67554075230479e-016
3.98107170553494e+004	-1.58032400394651e-017,1.51031424916662e-016
4.46683592150959e+004	4.74929881751233e-018,8.15627965708639e-017
5.01187233627268e+004	8.97818449275144e-018,4.24842694014200e-017
5.62341325190344e+004	7.74928590547926e-018,2.14835235350801e-017
6.30957344480187e+004	5.41643970427723e-018,1.06031225252088e-017
7.07945784384131e+004	3.41317315419626e-018,5.12992705099628e-018
7.94328234724274e+004	2.02045424092158e-018,2.44171897348139e-018
8.91250938133737e+004	1.14707744166341e-018,1.14671952201166e-018
9.99999999999990e+004	6.32239677801289e-019,5.32622482751608e-019
1.12201845430195e+005	3.40983918315220e-019,2.45128869284482e-019
1.25892541179415e+005	1.80924208923862e-019,1.11946500391990e-019
1.41253754462274e+005	9.48091884339056e-020,5.07849481071980e-020
1.58489319246110e+005	4.92076246095105e-020,2.29029082573065e-020
1.77827941003891e+005	2.53496351436318e-020,1.02722466055165e-020
1.99526231496886e+005	1.29830214676044e-020,4.58263821374114e-021
2.23872113856832e+005	6.61893994308508e-021,2.03310232832695e-021
2.51188643150955e+005	3.36225471658384e-021,8.96518222939580e-022
2.81838293126442e+005	1.70305792017804e-021,3.92544045298636e-022
3.16227766016835e+005	8.60675884808499e-022,1.70400615186840e-022
3.54813389233572e+005	4.34169825001490e-022,7.31610609618450e-023
3.98107170553493e+005	2.18697296814809e-022,3.09567589485464e-023
4.46683592150958e+005	1.10029632770934e-022,1.28372281984855e-023
5.01187233627267e+005	5.53029943809345e-023,5.16963962350476e-024
5.62341325190343e+005	2.77732916196373e-023,1.98926411483775e-024
6.30957344480186e+005	1.39377699526861e-023,7.07919064341567e-025
7.07945784384130e+005	6.98999991467868e-024,2.14457543279660e-025
7.94328234724273e+005	3.50343983590732e-024,3.85779751407343e-026
8.91250938133736e+005	1.75487976205943e-024,-1.48940411772585e-026
1.00000000000000e+006	8.78462069011620e-025,-2.46683378774402e-026
