Freq.	V(vout)
1.00000000000000e-001	-2.30527377772200e-013,-6.27939983721375e-012
1.12201845430196e-001	-2.90151050467320e-013,-7.04358032598435e-012
1.25892541179417e-001	-3.65174415792098e-013,-7.90017209988154e-012
1.41253754462275e-001	-4.59562440194910e-013,-8.86010854087737e-012
1.58489319246111e-001	-5.78293665211434e-013,-9.93551664631103e-012
1.77827941003892e-001	-7.27615060437396e-013,-1.11398053743382e-011
1.99526231496888e-001	-9.15358475088633e-013,-1.24877416314756e-011
2.23872113856834e-001	-1.15133211750469e-012,-1.39955032335053e-011
2.51188643150958e-001	-1.44780254278716e-012,-1.56806933834609e-011
2.81838293126445e-001	-1.82008442034967e-012,-1.75622946221670e-011
3.16227766016838e-001	-2.28725640339753e-012,-1.96605312601726e-011
3.54813389233575e-001	-2.87302091683377e-012,-2.19965973474888e-011
3.98107170553497e-001	-3.60672231683221e-012,-2.45921916015295e-011
4.46683592150963e-001	-4.52452963539660e-012,-2.74687808307726e-011
5.01187233627272e-001	-5.67077401115975e-012,-3.06464891069189e-011
5.62341325190348e-001	-7.09940266868299e-012,-3.41424820463952e-011
6.30957344480192e-001	-8.87546525676653e-012,-3.79686867253279e-011
7.07945784384137e-001	-1.10764775445526e-011,-4.21286639388663e-011
7.94328234724280e-001	-1.37934046643062e-011,-4.66134420381943e-011
8.91250938133744e-001	-1.71308662814849e-011,-5.13961495707832e-011
9.99999999999999e-001	-2.12059916416004e-011,-5.64253765312668e-011
1.12201845430196e+000	-2.61451619507593e-011,-6.16173902541541e-011
1.25892541179417e+000	-3.20777183416442e-011,-6.68476748827231e-011
1.41253754462275e+000	-3.91256754554976e-011,-7.19427825861523e-011
1.58489319246111e+000	-4.73887010480401e-011,-7.66741622829634e-011
1.77827941003892e+000	-5.69242665743068e-011,-8.07563514079057e-011
1.99526231496888e+000	-6.77240673868679e-011,-8.38524150646205e-011
2.23872113856834e+000	-7.96895097679660e-011,-8.55893839732924e-011
2.51188643150958e+000	-9.26108985918739e-011,-8.55852361456474e-011
2.81838293126445e+000	-1.06156180610289e-010,-8.34864892074972e-011
3.16227766016837e+000	-1.19874758140834e-010,-7.90121180112535e-011
3.54813389233575e+000	-1.33219375125932e-010,-7.19964405022774e-011
3.98107170553496e+000	-1.45584755498892e-010,-6.24223840248540e-011
4.46683592150962e+000	-1.56357097457378e-010,-5.04382201862765e-011
5.01187233627271e+000	-1.64965793547628e-010,-3.63550976793808e-011
5.62341325190348e+000	-1.70929207876346e-010,-2.06276577890470e-011
6.30957344480192e+000	-1.73889624099846e-010,-3.82334232611865e-012
7.07945784384136e+000	-1.73636649438981e-010,1.34136762357363e-011
7.94328234724279e+000	-1.70121151574210e-010,3.04002985520897e-011
8.91250938133743e+000	-1.63461948922466e-010,4.64534764854077e-011
9.99999999999997e+000	-1.53945310522195e-010,6.09315938114396e-011
1.12201845430196e+001	-1.42014505095383e-010,7.32787084049633e-011
1.25892541179416e+001	-1.28245268559467e-010,8.30689936615315e-011
1.41253754462275e+001	-1.13304602780959e-010,9.00448963075274e-011
1.58489319246111e+001	-9.78947137936112e-011,9.41403750549581e-011
1.77827941003892e+001	-8.26893371211605e-011,9.54818982025691e-011
1.99526231496887e+001	-6.82734722741150e-011,9.43646914521278e-011
2.23872113856833e+001	-5.50976352530481e-011,9.12081066602903e-011
2.51188643150957e+001	-4.34540412120600e-011,8.64991500791621e-011
2.81838293126444e+001	-3.34764089274696e-011,8.07351996339615e-011
3.16227766016837e+001	-2.51597065941662e-011,7.43755329933159e-011
3.54813389233574e+001	-1.83927934000106e-011,6.78076809119924e-011
3.98107170553496e+001	-1.29959949287432e-011,6.13304331878617e-011
4.46683592150961e+001	-8.75671779603015e-012,5.51518034975582e-011
5.01187233627270e+001	-5.45843378554444e-012,4.93980399573072e-011
5.62341325190347e+001	-2.90091914416412e-012,4.41289795039411e-011
6.30957344480191e+001	-9.11853536032206e-013,3.93554613308946e-011
7.07945784384135e+001	6.48651191255755e-013,3.50556879635381e-011
7.94328234724278e+001	1.88842421854968e-012,3.11888280356380e-011
8.91250938133742e+001	2.88645628660534e-012,2.77053581550097e-011
9.99999999999995e+001	3.69742960548552e-012,2.45544080817998e-011
1.12201845430196e+002	4.35662178449502e-012,2.16886838042662e-011
1.25892541179416e+002	4.88471658827500e-012,1.90675280034455e-011
1.41253754462275e+002	5.29230645587665e-012,1.66585231733705e-011
1.58489319246111e+002	5.58394607117301e-012,1.44379030163907e-011
1.77827941003891e+002	5.76161036787931e-012,1.23899825475384e-011
1.99526231496887e+002	5.82741072162145e-012,1.05058344338074e-011
2.23872113856833e+002	5.78546462587235e-012,8.78147920827331e-012
2.51188643150957e+002	5.64288859608651e-012,7.21588255488171e-012
2.81838293126444e+002	5.40997468012978e-012,5.80905144724843e-012
3.16227766016836e+002	5.09970942348097e-012,4.56048556982064e-012
3.54813389233574e+002	4.72688494844987e-012,3.46815660003127e-012
3.98107170553495e+002	4.30709719476671e-012,2.52805286482143e-012
4.46683592150961e+002	3.85588660256744e-012,1.73417700199050e-012
5.01187233627270e+002	3.38815248212813e-012,1.07878648357350e-012
5.62341325190346e+002	2.91782144288744e-012,5.52670262909804e-013
6.30957344480190e+002	2.45765080823798e-012,1.45347730955967e-013
7.07945784384134e+002	2.01904147247404e-012,-1.54807268899395e-013
7.94328234724277e+002	1.61179931529730e-012,-3.60443615019485e-013
8.91250938133740e+002	1.24386060420000e-012,-4.85036167057094e-013
9.99999999999994e+002	9.21037832707144e-013,-5.42582044044331e-013
1.12201845430196e+003	6.46841886019312e-013,-5.47200157388838e-013
1.25892541179416e+003	4.22416695196809e-013,-5.12666521592297e-013
1.41253754462275e+003	2.46605018098336e-013,-4.51923206271570e-013
1.58489319246110e+003	1.16153388012046e-013,-3.76600214640581e-013
1.77827941003891e+003	2.60544895466712e-014,-2.96592890181078e-013
1.99526231496887e+003	-2.99886848758279e-014,-2.19739758179259e-013
2.23872113856832e+003	-5.90098252768986e-014,-1.51642152733220e-013
2.51188643150956e+003	-6.81870776955907e-014,-9.56553148854534e-014
2.81838293126443e+003	-6.42731855038858e-014,-5.30613325557886e-014
3.16227766016836e+003	-5.31131821879941e-014,-2.34095379042825e-014
3.54813389233573e+003	-3.93073613719165e-014,-4.98362067623479e-015
3.98107170553494e+003	-2.60578222466446e-014,4.66783617797567e-015
4.46683592150960e+003	-1.52074981777357e-014,8.21338909541871e-015
5.01187233627269e+003	-7.44662337889830e-015,8.10724828409569e-015
5.62341325190345e+003	-2.63115938355944e-015,6.29963408725280e-015
6.30957344480189e+003	-1.39474325750849e-016,4.11240859205126e-015
7.07945784384133e+003	8.06264507811678e-016,2.26616239906399e-015
7.94328234724276e+003	9.08278524469886e-016,1.01333490009974e-015
8.91250938133739e+003	6.73072113385335e-016,3.15942243994861e-016
9.99999999999992e+003	3.91393200115675e-016,1.05640391591038e-017
1.12201845430195e+004	1.83130863151569e-016,-7.60929088146456e-017
1.25892541179416e+004	6.57059141002214e-017,-7.05916729111162e-017
1.41253754462274e+004	1.40672208997661e-017,-4.27058424208650e-017
1.58489319246110e+004	-2.28431330755916e-018,-1.99472465997829e-017
1.77827941003891e+004	-4.44002761815217e-018,-7.34484061560810e-018
1.99526231496886e+004	-2.89237591936246e-018,-1.99342642808367e-018
2.23872113856832e+004	-1.35317708247036e-018,-2.59521191794332e-019
2.51188643150956e+004	-5.07209217888619e-019,1.08829533223398e-019
2.81838293126443e+004	-1.55504745781444e-019,1.05473472436011e-019
3.16227766016835e+004	-3.75640052511459e-020,5.38579960735209e-020
3.54813389233572e+004	-5.79828605342353e-021,2.14407646209962e-020
3.98107170553494e+004	4.26816876947282e-022,7.28475183336156e-021
4.46683592150959e+004	8.19170773359626e-022,2.18860809921140e-021
5.01187233627268e+004	4.33960769693857e-022,5.89476359133530e-022
5.62341325190344e+004	1.74582472242519e-022,1.41921884697126e-022
6.30957344480187e+004	6.12570857781470e-023,2.96668925288793e-023
7.07945784384131e+004	1.97336187298634e-023,4.83880641937528e-024
7.94328234724274e+004	5.99173930414052e-024,2.97835044401179e-025
8.91250938133737e+004	1.74218661723304e-024,-2.14942033034158e-025
9.99999999999990e+004	4.90268533516058e-025,-1.40041900806299e-025
1.12201845430195e+005	1.34531226430901e-025,-5.97885087654038e-026
1.25892541179415e+005	3.61942644163951e-026,-2.18963555420328e-026
1.41253754462274e+005	9.58638435253953e-027,-7.39632676632392e-027
1.58489319246110e+005	2.50723888975942e-027,-2.37688594772227e-027
1.77827941003891e+005	6.49011200721685e-028,-7.38702155703982e-028
1.99526231496886e+005	1.66551022045932e-028,-2.24215975102445e-028
2.23872113856832e+005	4.24213560566272e-029,-6.68912931369625e-029
2.51188643150955e+005	1.07319251861592e-029,-1.97004133491318e-029
2.81838293126442e+005	2.69752571426902e-030,-5.74555890143286e-030
3.16227766016835e+005	6.73618066727738e-031,-1.66312428108149e-030
3.54813389233572e+005	1.67031580655120e-031,-4.78613141361332e-031
3.98107170553493e+005	4.10839118602796e-032,-1.37108232616837e-031
4.46683592150958e+005	1.00067229821152e-032,-3.91363595593698e-032
5.01187233627267e+005	2.40714743964042e-033,-1.11392222965783e-032
5.62341325190343e+005	5.69524779515521e-034,-3.16322766005817e-033
6.30957344480186e+005	1.31665536808789e-034,-8.96585194211328e-034
7.07945784384130e+005	2.94164567374202e-035,-2.53732207780100e-034
7.94328234724273e+005	6.22342283080430e-036,-7.17103274945644e-035
8.91250938133736e+005	1.19330436700848e-036,-2.02430998527336e-035
1.00000000000000e+006	1.82704377537682e-037,-5.70822218658807e-036
