Freq.	V(vout)
1.00000000000000e-001	-8.24165932308848e-014,-4.63070575821373e-012
1.12201845430196e-001	-1.03750924786329e-013,-5.19538967307123e-012
1.25892541179417e-001	-1.30606088463824e-013,-5.82883208496555e-012
1.41253754462275e-001	-1.64409715711767e-013,-6.53936370009877e-012
1.58489319246111e-001	-2.06958005611145e-013,-7.33630737704160e-012
1.77827941003892e-001	-2.60510524195327e-013,-8.23008916914771e-012
1.99526231496888e-001	-3.27909180902233e-013,-9.23235880322376e-012
2.23872113856834e-001	-4.12727427435329e-013,-1.03561190646480e-011
2.51188643150958e-001	-5.19457164781286e-013,-1.16158628129687e-011
2.81838293126445e-001	-6.53742585726116e-013,-1.30277152429795e-011
3.16227766016838e-001	-8.22672259206031e-013,-1.46095773850823e-011
3.54813389233575e-001	-1.03514320256721e-012,-1.63812645001458e-011
3.98107170553497e-001	-1.30231348078598e-012,-1.83646296883945e-011
4.46683592150963e-001	-1.63816295385994e-012,-2.05836583229694e-011
5.01187233627272e-001	-2.06018499953815e-012,-2.30645123390182e-011
5.62341325190348e-001	-2.59023503279152e-012,-2.58354943147879e-011
6.30957344480192e-001	-3.25556381554271e-012,-2.89268888662365e-011
7.07945784384137e-001	-4.09006385444476e-012,-3.23706221804725e-011
7.94328234724280e-001	-5.13575392028310e-012,-3.61996584809556e-011
8.91250938133744e-001	-6.44451721511447e-012,-4.04470238646171e-011
9.99999999999999e-001	-8.08008893393074e-012,-4.51443127178315e-011
1.12201845430196e+000	-1.01202530803477e-011,-5.03194903425547e-011
1.25892541179417e+000	-1.26591484065284e-011,-5.59937603203414e-011
1.41253754462275e+000	-1.58094890848690e-011,-6.21772235069087e-011
1.58489319246111e+000	-1.97043657662901e-011,-6.88630313801334e-011
1.77827941003892e+000	-2.44980971949628e-011,-7.60197544306048e-011
1.99526231496888e+000	-3.03653495002946e-011,-8.35817855293713e-011
2.23872113856834e+000	-3.74974468191634e-011,-9.14378341175576e-011
2.51188643150958e+000	-4.60945168961084e-011,-9.94180064340119e-011
2.81838293126445e+000	-5.63519609726912e-011,-1.07280668991221e-010
3.16227766016837e+000	-6.84398951573832e-011,-1.14701266127052e-010
3.54813389233575e+000	-8.24749298526771e-011,-1.21266396164610e-010
3.98107170553496e+000	-9.84851732215832e-011,-1.26477429276865e-010
4.46683592150962e+000	-1.16371726490857e-010,-1.29768212857575e-010
5.01187233627271e+000	-1.35872831169033e-010,-1.30540249047314e-010
5.62341325190348e+000	-1.56539281648551e-010,-1.28215622745664e-010
6.30957344480192e+000	-1.77730301741512e-010,-1.22303107748315e-010
7.07945784384136e+000	-1.98636521464489e-010,-1.12467638187997e-010
7.94328234724279e+000	-2.18330860838402e-010,-9.85900177872626e-011
8.91250938133743e+000	-2.35840774652321e-010,-8.08045061148515e-011
9.99999999999997e+000	-2.50229584973419e-010,-5.95071981214106e-011
1.12201845430196e+001	-2.60673328361565e-010,-3.53358231029717e-011
1.25892541179416e+001	-2.66523206726317e-010,-9.12810077344221e-012
1.41253754462275e+001	-2.67350111293489e-010,1.81318593790183e-011
1.58489319246111e+001	-2.62973165266365e-010,4.53719103552715e-011
1.77827941003892e+001	-2.53476022982232e-010,7.14925126030700e-011
1.99526231496887e+001	-2.39212330986177e-010,9.54310647799602e-011
2.23872113856833e+001	-2.20797258996174e-010,1.16231606862065e-010
2.51188643150957e+001	-1.99078615341552e-010,1.33117706414553e-010
2.81838293126444e+001	-1.75081702017395e-010,1.45560137796688e-010
3.16227766016837e+001	-1.49927690948244e-010,1.53326016219396e-010
3.54813389233574e+001	-1.24734004446857e-010,1.56495872688346e-010
3.98107170553496e+001	-1.00512862997578e-010,1.55441048258425e-010
4.46683592150961e+001	-7.80868023820296e-011,1.50763721822760e-010
5.01187233627270e+001	-5.80360847757729e-011,1.43211560981480e-010
5.62341325190347e+001	-4.06844009387318e-011,1.33584414653021e-010
6.30957344480191e+001	-2.61198497032039e-011,1.22650148992628e-010
7.07945784384135e+001	-1.42412201615921e-011,1.11081885111143e-010
7.94328234724278e+001	-4.81657754567340e-012,9.94220854981928e-011
8.91250938133742e+001	2.45820574001962e-012,8.80725032945279e-011
9.99999999999995e+001	7.91019915252819e-012,7.73043780162476e-011
1.12201845430196e+002	1.18543921722292e-011,6.72809749102889e-011
1.25892541179416e+002	1.45736349823185e-011,5.80845404927981e-011
1.41253754462275e+002	1.63110437611960e-011,4.97414606286191e-011
1.58489319246111e+002	1.72706551087633e-011,4.22420483355091e-011
1.77827941003891e+002	1.76219690560757e-011,3.55540665181346e-011
1.99526231496887e+002	1.75050741561696e-011,2.96310787221898e-011
2.23872113856833e+002	1.70346603515453e-011,2.44176414047838e-011
2.51188643150957e+002	1.63027272028778e-011,1.98532418770615e-011
2.81838293126444e+002	1.53807210542338e-011,1.58761145311171e-011
3.16227766016836e+002	1.43220466151562e-011,1.24271292812817e-011
3.54813389233574e+002	1.31655511289682e-011,9.45324531126625e-012
3.98107170553495e+002	1.19399708732119e-011,6.90975563657213e-012
4.46683592150961e+002	1.06687499134071e-011,4.76071201226042e-012
5.01187233627270e+002	9.37429941602036e-012,2.97739294390515e-012
5.62341325190346e+002	8.08078202514292e-012,1.53527081232171e-012
6.30957344480190e+002	6.81489156305598e-012,4.10415392228347e-013
7.07945784384134e+002	5.60471839872067e-012,-4.23577702353788e-013
7.94328234724277e+002	4.47737679104142e-012,-9.97313513088889e-013
8.91250938133740e+002	3.45634820033467e-012,-1.34572070304256e-012
9.99999999999994e+002	2.55935952924648e-012,-1.50687809778881e-012
1.12201845430196e+003	1.79720242004647e-012,-1.52015519902285e-012
1.25892541179416e+003	1.17347465576711e-012,-1.42424387491247e-012
1.41253754462275e+003	6.84992830525543e-013,-1.25541907792601e-012
1.58489319246110e+003	3.22619750631296e-013,-1.04612425086503e-012
1.77827941003891e+003	7.23629905955560e-014,-8.23861735160081e-013
1.99526231496887e+003	-8.33015485233438e-014,-6.10381829417969e-013
2.23872113856832e+003	-1.63913539830005e-013,-4.21225954485169e-013
2.51188643150956e+003	-1.89406737117612e-013,-2.65708964980983e-013
2.81838293126443e+003	-1.78535697014439e-013,-1.47392799330477e-013
3.16227766016836e+003	-1.47536129227887e-013,-6.50267209615256e-014
3.54813389233573e+003	-1.09186848861074e-013,-1.38435917669538e-014
3.98107170553494e+003	-7.23827117191895e-014,1.29660457873734e-014
4.46683592150960e+003	-4.22430063178570e-014,2.28148504789287e-014
5.01187233627269e+003	-2.06850620198300e-014,2.25200599727424e-014
5.62341325190345e+003	-7.30878767404293e-015,1.74989434766576e-014
6.30957344480189e+003	-3.87441582617176e-016,1.14233386062093e-014
7.07945784384133e+003	2.23961417692073e-015,6.29488852193192e-015
7.94328234724276e+003	2.52299032988033e-015,2.81481731388523e-015
8.91250938133739e+003	1.86964196557475e-015,8.77617287630038e-016
9.99999999999992e+003	1.08720209810401e-015,2.93448646301773e-017
1.12201845430195e+004	5.08696335761373e-016,-2.11368939743813e-016
1.25892541179416e+004	1.82516220689773e-016,-1.96087835040002e-016
1.41253754462274e+004	3.90755238069584e-017,-1.18627260576174e-016
1.58489319246110e+004	-6.34535406712783e-018,-5.54089723244412e-017
1.77827941003891e+004	-1.23334250733443e-017,-2.04023077227230e-017
1.99526231496886e+004	-8.03438123591540e-018,-5.53728038839190e-018
2.23872113856832e+004	-3.75882470909612e-018,-7.20884681515622e-019
2.51188643150956e+004	-1.40891316859837e-018,3.02307430544637e-019
2.81838293126443e+004	-4.31956634482454e-019,2.92982979026671e-019
3.16227766016835e+004	-1.04343921909042e-019,1.49605846409082e-019
3.54813389233572e+004	-1.61061104793859e-020,5.95577261900047e-020
3.98107170553494e+004	1.18569508211102e-021,2.02354113188776e-020
4.46683592150959e+004	2.27550612921405e-021,6.07945355016080e-021
5.01187233627268e+004	1.20545632467429e-021,1.63742666830776e-021
5.62341325190344e+004	4.84953971122370e-022,3.94224009700256e-022
6.30957344480187e+004	1.70159196624224e-022,8.24066712088232e-023
7.07945784384131e+004	5.48157195923512e-023,1.34406330066659e-023
7.94328234724274e+004	1.66437259242378e-023,8.27149617473256e-025
8.91250938133737e+004	4.83939951614267e-024,-5.97116918812979e-025
9.99999999999990e+004	1.36185170329089e-024,-3.89022936343993e-025
1.12201845430195e+005	3.73695329055361e-025,-1.66084639886286e-025
1.25892541179415e+005	1.00538591267722e-025,-6.08248563463401e-026
1.41253754462274e+005	2.66284547656862e-026,-2.05458412581025e-026
1.58489319246110e+005	6.96441164943561e-027,-6.60260424233091e-027
1.77827941003891e+005	1.80275977938883e-027,-2.05199190265271e-027
1.99526231496886e+005	4.62624998530675e-028,-6.22834030302138e-028
2.23872113856832e+005	1.17831499043356e-028,-1.85812516186023e-028
2.51188643150955e+005	2.98090521635095e-029,-5.47243166388596e-029
2.81838293126442e+005	7.49252122170438e-030,-1.59601489436258e-029
3.16227766016835e+005	1.87096457833226e-030,-4.61986199475623e-030
3.54813389233572e+005	4.63913110971445e-031,-1.32950055652975e-030
3.98107170553493e+005	1.14101575407973e-031,-3.80861424262120e-031
4.46683592150958e+005	2.77899228255328e-032,-1.08713467620365e-031
5.01187233627267e+005	6.68443716589124e-033,-3.09426249055600e-032
5.62341325190343e+005	1.58135021341740e-033,-8.78682436756537e-033
6.30957344480186e+005	3.65527056102727e-034,-2.49053177908681e-033
7.07945784384130e+005	8.16456573091914e-035,-7.04814638293258e-034
7.94328234724273e+005	1.72661807347252e-035,-1.99195496657658e-034
8.91250938133736e+005	3.30807105790212e-036,-5.62306292374605e-035
1.00000000000000e+006	5.05412473088676e-037,-1.58560292597736e-035
