Freq.	V(vout)
1.00000000000000e-01	-2.07913053635848e-14,-2.49519195278758e-12
1.12201845430196e-01	-2.61741823122626e-14,-2.79959928482112e-12
1.25892541179417e-01	-3.29505185720125e-14,-3.14112842551177e-12
1.41253754462275e-01	-4.14809382101398e-14,-3.52430005225832e-12
1.58489319246111e-01	-5.22193360094435e-14,-3.95418279209825e-12
1.77827941003892e-01	-6.57369667577934e-14,-4.43645857488075e-12
1.99526231496888e-01	-8.27527364079139e-14,-4.97749534038409e-12
2.23872113856834e-01	-1.04171280110847e-13,-5.58442774175526e-12
2.51188643150958e-01	-1.31130810454129e-13,-6.26524646162315e-12
2.81838293126445e-01	-1.65063213748252e-13,-7.02889668554621e-12
3.16227766016838e-01	-2.07769483485986e-13,-7.88538613747398e-12
3.54813389233575e-01	-2.61514332048985e-13,-8.84590284152135e-12
3.98107170553497e-01	-3.29144741026545e-13,-9.92294238841061e-12
4.46683592150963e-01	-4.14238323953226e-13,-1.11304438902431e-11
5.01187233627272e-01	-5.21288708785520e-13,-1.24839329161380e-11
5.62341325190348e-01	-6.55936718821041e-13,-1.40006683931224e-11
6.30957344480192e-01	-8.25257941502866e-13,-1.56997885673008e-11
7.07945784384137e-01	-1.03811929221846e-12,-1.76024484293498e-11
7.94328234724280e-01	-1.30561931573377e-12,-1.97319372250534e-11
8.91250938133744e-01	-1.64162903075145e-12,-2.21137594216948e-11
9.99999999999999e-01	-2.06345176455331e-12,-2.47756553196571e-11
1.12201845430196e+00	-2.59262104263829e-12,-2.77475278380036e-11
1.25892541179417e+00	-3.25585421071555e-12,-3.10612292748222e-11
1.41253754462275e+00	-4.08617453628543e-12,-3.47501455251783e-11
1.58489319246111e+00	-5.12420376001893e-12,-3.88484950961933e-11
1.77827941003892e+00	-6.41960714650662e-12,-4.33902367534910e-11
1.99526231496888e+00	-8.03263958286676e-12,-4.84074546333523e-11
2.23872113856834e+00	-1.00356887250490e-11,-5.39280675404635e-11
2.51188643150958e+00	-1.25146338239118e-11,-5.99726983959517e-11
2.81838293126445e+00	-1.55697325256610e-11,-6.65505549024064e-11
3.16227766016837e+00	-1.93156140543701e-11,-7.36542356782281e-11
3.54813389233575e+00	-2.38798095436385e-11,-8.12535173382972e-11
3.98107170553496e+00	-2.93991248428376e-11,-8.92884303836840e-11
4.46683592150962e+00	-3.60131265547400e-11,-9.76623181445597e-11
5.01187233627271e+00	-4.38541741677368e-11,-1.06236079269013e-10
5.62341325190348e+00	-5.30339173408946e-11,-1.14825329735761e-10
6.30957344480192e+00	-6.36270830379734e-11,-1.23202579444825e-10
7.07945784384136e+00	-7.56546642705964e-11,-1.31106379430289e-10
7.94328234724279e+00	-8.90699971070124e-11,-1.38258412083900e-10
8.91250938133743e+00	-1.03752072725517e-10,-1.44387514519327e-10
9.99999999999997e+00	-1.19510014014924e-10,-1.49256965485868e-10
1.12201845430196e+01	-1.36100445740913e-10,-1.52688965259701e-10
1.25892541179416e+01	-1.53255772755789e-10,-1.54579383746482e-10
1.41253754462275e+01	-1.70717397519115e-10,-1.54897479193155e-10
1.58489319246111e+01	-1.88265403862356e-10,-1.53669238682960e-10
1.77827941003892e+01	-2.05736469549733e-10,-1.50947874124026e-10
1.99526231496887e+01	-2.23024738705302e-10,-1.46778932656757e-10
2.23872113856833e+01	-2.40064886994366e-10,-1.41169120600583e-10
2.51188643150957e+01	-2.56801085815584e-10,-1.34067093681076e-10
2.81838293126444e+01	-2.73148923498126e-10,-1.25361778589902e-10
3.16227766016837e+01	-2.88959151569477e-10,-1.14900074377983e-10
3.54813389233574e+01	-3.03992283035496e-10,-1.02521624331354e-10
3.98107170553496e+01	-3.17911411292440e-10,-8.81042702636720e-11
4.46683592150961e+01	-3.30297019656233e-10,-7.16106266743282e-11
5.01187233627270e+01	-3.40682437561760e-10,-5.31250859265124e-11
5.62341325190347e+01	-3.48603293301013e-10,-3.28723596915238e-11
6.30957344480191e+01	-3.53650675602601e-10,-1.12131834373915e-11
7.07945784384135e+01	-3.55517148210238e-10,1.13814252444554e-11
7.94328234724278e+01	-3.54027339026433e-10,3.43710324301384e-11
8.91250938133741e+01	-3.49149307628955e-10,5.71929010640750e-11
9.99999999999995e+01	-3.40987534135343e-10,7.93066534726978e-11
1.12201845430196e+02	-3.29761784354139e-10,1.00230021146609e-10
1.25892541179416e+02	-3.15777653514832e-10,1.19562364076791e-10
1.41253754462275e+02	-2.99394363989619e-10,1.36995542667092e-10
1.58489319246111e+02	-2.80994077625072e-10,1.52313560609444e-10
1.77827941003891e+02	-2.60955593249390e-10,1.65382999288214e-10
1.99526231496887e+02	-2.39634615364493e-10,1.76136249352060e-10
2.23872113856833e+02	-2.17352754630234e-10,1.84549896756321e-10
2.51188643150957e+02	-1.94397147464469e-10,1.90621835751570e-10
2.81838293126444e+02	-1.71031050069955e-10,1.94352188116436e-10
3.16227766016836e+02	-1.47512834465057e-10,1.95733573134979e-10
3.54813389233574e+02	-1.24117562153701e-10,1.94754611342904e-10
3.98107170553495e+02	-1.01153413357485e-10,1.91416803670262e-10
4.46683592150961e+02	-7.89659551764404e-11,1.85760382721873e-10
5.01187233627270e+02	-5.79266312406679e-11,1.77891228145529e-10
5.62341325190346e+02	-3.84068305123487e-11,1.67999974583425e-10
6.30957344480190e+02	-2.07436306786357e-11,1.56366520277292e-10
7.07945784384134e+02	-5.20605217471870e-12,1.43347577358340e-10
7.94328234724277e+02	8.02960559591567e-12,1.29350076344061e-10
8.91250938133740e+02	1.88898734928253e-11,1.14797241966835e-10
9.99999999999994e+02	2.73988334405855e-11,1.00095605324618e-10
1.12201845430196e+03	3.36609686296751e-11,8.56098401783089e-11
1.25892541179416e+03	3.78382318166690e-11,7.16489987752288e-11
1.41253754462275e+03	4.01276688688545e-11,5.84639590005751e-11
1.58489319246110e+03	4.07443009365486e-11,4.62529852916886e-11
1.77827941003891e+03	3.99114048762334e-11,3.51708906525348e-11
1.99526231496887e+03	3.78577463605658e-11,2.53373487656857e-11
2.23872113856832e+03	3.48192997083599e-11,1.68410855451412e-11
2.51188643150956e+03	3.10418427532394e-11,9.73856203822769e-12
2.81838293126443e+03	2.67807270621841e-11,4.04792713214807e-12
3.16227766016836e+03	2.22951661149058e-11,-2.59037839216301e-13
3.54813389233573e+03	1.78363681856673e-11,-3.26313937495876e-12
3.98107170553494e+03	1.36311872683035e-11,-5.09849358581650e-12
4.46683592150960e+03	9.86482438288576e-12,-5.94560277543806e-12
5.01187233627269e+03	6.66675548494774e-12,-6.01694623540491e-12
5.62341325190345e+03	4.10329130929366e-12,-5.53744030347384e-12
6.30957344480189e+03	2.17840888294746e-12,-4.72343123194549e-12
7.07945784384133e+03	8.42480029753022e-13,-3.76402043909459e-12
7.94328234724276e+03	6.90104007444457e-15,-2.80770305470662e-12
8.91250938133739e+03	-4.38302798118643e-13,-1.95597159400871e-12
9.99999999999992e+03	-6.07055750355004e-13,-1.26408413533080e-12
1.12201845430195e+04	-6.02776829988474e-13,-7.47869588073558e-13
1.25892541179416e+04	-5.08795387414465e-13,-3.94437413122998e-13
1.41253754462274e+04	-3.84320034655994e-13,-1.74176452072785e-13
1.58489319246110e+04	-2.65375931434201e-13,-5.15973154799298e-14
1.77827941003891e+04	-1.69170826911622e-13,6.67110473059823e-15
1.99526231496886e+04	-9.99685198444133e-14,2.73622743390421e-14
2.23872113856832e+04	-5.47671960179435e-14,2.91788535530960e-14
2.51188643150956e+04	-2.76997230308985e-14,2.35614877461872e-14
2.81838293126443e+04	-1.27892093732748e-14,1.65058268954969e-14
3.16227766016835e+04	-5.24749888153411e-15,1.05291030274312e-14
3.54813389233572e+04	-1.77792717446465e-15,6.26654787221263e-15
3.98107170553494e+04	-3.62473885037233e-16,3.53229356569844e-15
4.46683592150959e+04	1.14086589196449e-16,1.90568536558275e-15
5.01187233627268e+04	2.10998219178510e-16,9.91974623050153e-16
5.62341325190344e+04	1.81462346944194e-16,5.01408265983661e-16
6.30957344480187e+04	1.26648368164109e-16,2.47400223629213e-16
7.07945784384131e+04	7.97469454667630e-17,1.19673999553277e-16
7.94328234724274e+04	4.71864085565424e-17,5.69548516383509e-17
8.91250938133737e+04	2.67823267646672e-17,2.67454601240368e-17
9.99999999999990e+04	1.47593809768102e-17,1.24214521795528e-17
1.12201845430195e+05	7.95933547846415e-18,5.71613610329372e-18
1.25892541179415e+05	4.22290907010703e-18,2.61013675428490e-18
1.41253754462274e+05	2.21282565012428e-18,1.18390365224818e-18
1.58489319246110e+05	1.14846235751920e-18,5.33800163456931e-19
1.77827941003891e+05	5.91625951413088e-19,2.39348869475285e-19
1.99526231496886e+05	3.03001273547051e-19,1.06738637144392e-19
2.23872113856832e+05	1.54472553611929e-19,4.73321069026641e-20
2.51188643150955e+05	7.84671764294429e-20,2.08583617237468e-20
2.81838293126442e+05	3.97448753760199e-20,9.12524415286828e-21
3.16227766016835e+05	2.00856080040212e-20,3.95674771874893e-21
3.54813389233572e+05	1.01320539483465e-20,1.69621739740459e-21
3.98107170553493e+05	5.10354801113052e-21,7.16191655547292e-22
4.46683592150958e+05	2.56759955279685e-21,2.96079433774916e-22
5.01187233627267e+05	1.29048335063936e-21,1.18679146799397e-22
5.62341325190343e+05	6.48057876501286e-22,4.53216052003176e-23
6.30957344480186e+05	3.25205621761569e-22,1.59029678918721e-23
7.07945784384130e+05	1.63085268935776e-22,4.65864633945772e-24
7.94328234724273e+05	8.17331290181849e-23,7.06471167349504e-25
8.91250938133736e+05	4.09362501330380e-23,-4.56006281755914e-25
1.00000000000000e+06	2.04894400926447e-23,-6.36260801713571e-25
