Freq.	V(vout)
1.00000000000000e-001	-2.58687921492079e-013,-6.03679064971911e-012
1.12201845430196e-001	-3.25561927517497e-013,-6.77066771660098e-012
1.25892541179417e-001	-4.09688923784625e-013,-7.59297079582346e-012
1.41253754462275e-001	-5.15499774582280e-013,-8.51402934433232e-012
1.58489319246111e-001	-6.48551449774124e-013,-9.54524501277367e-012
1.77827941003892e-001	-8.15806342730636e-013,-1.06991461031287e-011
1.99526231496888e-001	-1.02597685433923e-012,-1.19894181402603e-011
2.23872113856834e-001	-1.28994812690288e-012,-1.34308957929055e-011
2.51188643150958e-001	-1.62129290901764e-012,-1.50394952534480e-011
2.81838293126445e-001	-2.03689270912218e-012,-1.68320579473877e-011
3.16227766016838e-001	-2.55767781118600e-012,-1.88260655750370e-011
3.54813389233575e-001	-3.20949406043629e-012,-2.10391725097080e-011
3.98107170553497e-001	-4.02409458965591e-012,-2.34884842230260e-011
4.46683592150963e-001	-5.04023697456091e-012,-2.61894899632511e-011
5.01187233627272e-001	-6.30483674558236e-012,-2.91545357956167e-011
5.62341325190348e-001	-7.87408176117860e-012,-3.23907038212654e-011
6.30957344480192e-001	-9.81434310743091e-012,-3.58969518862684e-011
7.07945784384137e-001	-1.22026222232944e-011,-3.96603776012372e-011
7.94328234724280e-001	-1.51261501254141e-011,-4.36515203363285e-011
8.91250938133744e-001	-1.86806117985824e-011,-4.78187322265104e-011
9.99999999999999e-001	-2.29663341757172e-011,-5.20818666150767e-011
1.12201845430196e+000	-2.80817055655792e-011,-5.63258779185153e-011
1.25892541179417e+000	-3.41131800320074e-011,-6.03954031411457e-011
1.41253754462275e+000	-4.11215838349910e-011,-6.40919443880130e-011
1.58489319246111e+000	-4.91251964841385e-011,-6.71757353174289e-011
1.77827941003892e+000	-5.80812497524146e-011,-6.93744751259439e-011
1.99526231496888e+000	-6.78688908507535e-011,-7.04005070144347e-011
2.23872113856834e+000	-7.82778152841179e-011,-6.99764608087322e-011
2.51188643150958e+000	-8.90069892646262e-011,-6.78669918288243e-011
2.81838293126445e+000	-9.96765417420027e-011,-6.39117168897923e-011
3.16227766016837e+000	-1.09852988559411e-010,-5.80529146906435e-011
3.54813389233575e+000	-1.19084345423004e-010,-5.03520549520378e-011
3.98107170553496e+000	-1.26938943178214e-010,-4.09919139890252e-011
4.46683592150962e+000	-1.33041221978270e-010,-3.02648708332504e-011
5.01187233627271e+000	-1.37099669723205e-010,-1.85511819888282e-011
5.62341325190348e+000	-1.38925271329541e-010,-6.29218879701705e-012
6.30957344480192e+000	-1.38441607469661e-010,6.03768129780195e-012
7.07945784384136e+000	-1.35688777044167e-010,1.79585642764354e-011
7.94328234724279e+000	-1.30822417876767e-010,2.90128626457381e-011
8.91250938133743e+000	-1.24107155092413e-010,3.87938074945895e-011
9.99999999999997e+000	-1.15902259931340e-010,4.69742637852502e-011
1.12201845430196e+001	-1.06637410173383e-010,5.33327147935007e-011
1.25892541179416e+001	-9.67785955326465e-011,5.77713913389986e-011
1.41253754462275e+001	-8.67876007269407e-011,6.03214596305620e-011
1.58489319246111e+001	-7.70814483724472e-011,6.11325432971942e-011
1.77827941003892e+001	-6.79990928008423e-011,6.04477710355315e-011
1.99526231496887e+001	-5.97809891554465e-011,5.85692636400340e-011
2.23872113856833e+001	-5.25637316505793e-011,5.58209357007929e-011
2.51188643150957e+001	-4.63883002864328e-011,5.25151590283824e-011
2.81838293126444e+001	-4.12178894394458e-011,4.89277860328982e-011
3.16227766016837e+001	-3.69603407840802e-011,4.52833405517154e-011
3.54813389233574e+001	-3.34906653123460e-011,4.17497963634000e-011
3.98107170553496e+001	-3.06704612376998e-011,3.84407980631843e-011
4.46683592150961e+001	-2.83626347035833e-011,3.54225561332681e-011
5.01187233627270e+001	-2.64412498789793e-011,3.27228291957710e-011
5.62341325190347e+001	-2.47972854401436e-011,3.03401081411735e-011
6.30957344480191e+001	-2.33414511493572e-011,2.82519991485753e-011
7.07945784384135e+001	-2.20050932471392e-011,2.64225531070580e-011
7.94328234724278e+001	-2.07397987803228e-011,2.48086986135495e-011
8.91250938133742e+001	-1.95158691109964e-011,2.33659516580838e-011
9.99999999999995e+001	-1.83196119380507e-011,2.20533142802634e-011
1.12201845430196e+002	-1.71495055254675e-011,2.08369771384419e-011
1.25892541179416e+002	-1.60116316676513e-011,1.96923542793690e-011
1.41253754462275e+002	-1.49151169791029e-011,1.86042140424711e-011
1.58489319246111e+002	-1.38684204369878e-011,1.75651300486399e-011
1.77827941003891e+002	-1.28770652878636e-011,1.65729163820629e-011
1.99526231496887e+002	-1.19429465000156e-011,1.56279030595546e-011
2.23872113856833e+002	-1.10648787958455e-011,1.47307769912082e-011
2.51188643150957e+002	-1.02397819376666e-011,1.38813576337350e-011
2.81838293126444e+002	-9.46389884867467e-012,1.30782791983206e-011
3.16227766016836e+002	-8.73364791626530e-012,1.23192742580458e-011
3.54813389233574e+002	-8.04599222378209e-012,1.16016715355840e-011
3.98107170553495e+002	-7.39843464340668e-012,1.09228108817551e-011
4.46683592150961e+002	-6.78884319422647e-012,1.02802510041509e-011
5.01187233627270e+002	-6.21527907995772e-012,9.67179702313287e-012
5.62341325190346e+002	-5.67590425774147e-012,9.09544296430719e-012
6.30957344480190e+002	-5.16896112452084e-012,8.54931088692727e-012
7.07945784384134e+002	-4.69278325737265e-012,8.03161943137966e-012
7.94328234724277e+002	-4.24580564143484e-012,7.54067633305050e-012
8.91250938133740e+002	-3.82656526873857e-012,7.07487877929697e-012
9.99999999999994e+002	-3.43369618007961e-012,6.63271234751158e-012
1.12201845430196e+003	-3.06592407702836e-012,6.21274759935332e-012
1.25892541179416e+003	-2.72206217626833e-012,5.81363624663733e-012
1.41253754462275e+003	-2.40100789695121e-012,5.43410800898170e-012
1.58489319246110e+003	-2.10173986602304e-012,5.07296826070248e-012
1.77827941003891e+003	-1.82331510867170e-012,4.72909635796339e-012
1.99526231496887e+003	-1.56486641193876e-012,4.40144466790792e-012
2.23872113856832e+003	-1.32559979862571e-012,4.08903839675010e-012
2.51188643150956e+003	-1.10479199165859e-012,3.79097632203483e-012
2.81838293126443e+003	-9.01787701954760e-013,3.50643253477461e-012
3.16227766016836e+003	-7.15996512150664e-013,3.23465929574148e-012
3.54813389233573e+003	-5.46889047384267e-013,2.97499109356849e-012
3.98107170553494e+003	-3.93992022815092e-013,2.72684994847069e-012
4.46683592150960e+003	-2.56881637656627e-013,2.48975191944362e-012
5.01187233627269e+003	-1.35174655078162e-013,2.26331462428388e-012
5.62341325190345e+003	-2.85163857206890e-014,2.04726534571258e-012
6.30957344480189e+003	6.34352828188206e-014,1.84144894738396e-012
7.07945784384133e+003	1.41030634094351e-013,1.64583434274204e-012
7.94328234724276e+003	2.04654233686763e-013,1.46051765505254e-012
8.91250938133739e+003	2.54756422024145e-013,1.28571953946171e-012
9.99999999999992e+003	2.91889186352246e-013,1.12177355908237e-012
1.12201845430195e+004	3.16743856555380e-013,9.69102291974396e-013
1.25892541179416e+004	3.30186069029763e-013,8.28178391940892e-013
1.41253754462274e+004	3.33281365320033e-013,6.99469568046270e-013
1.58489319246110e+004	3.27303387348204e-013,5.83369642324621e-013
1.77827941003891e+004	3.13716945436008e-013,4.80122239028742e-013
1.99526231496886e+004	2.94131225715551e-013,3.89748191593808e-013
2.23872113856832e+004	2.70224261477658e-013,3.11990595507726e-013
2.51188643150956e+004	2.43647314251539e-013,2.46290637580895e-013
2.81838293126443e+004	2.15924401626797e-013,1.91801992244001e-013
3.16227766016835e+004	1.88364925711345e-013,1.47442828385040e-013
3.54813389233572e+004	1.62004583560951e-013,1.11975382477535e-013
3.98107170553494e+004	1.37582352717691e-013,8.40971491999281e-014
4.46683592150959e+004	1.15552338546784e-013,6.25270535402339e-014
5.01187233627268e+004	9.61220573395219e-014,4.60740429629545e-014
5.62341325190344e+004	7.93053608884999e-014,3.36820254066467e-014
6.30957344480187e+004	6.49787156909600e-014,2.44512803043366e-014
7.07945784384131e+004	5.29325348606661e-014,1.76406387615951e-014
7.94328234724274e+004	4.29129874330063e-014,1.26564535106200e-014
8.91250938133737e+004	3.46529137973593e-014,9.03419707608191e-015
9.99999999999990e+004	2.78926091145871e-014,6.41730557601774e-015
1.12201845430195e+005	2.23923059482700e-014,4.53637349637789e-015
1.25892541179415e+005	1.79384717508739e-014,3.19045646697461e-015
1.41253754462274e+005	1.43458623930048e-014,2.23123846844668e-015
1.58489319246110e+005	1.14568989085750e-014,1.55017705045394e-015
1.77827941003891e+005	9.13952492881785e-015,1.06838482554261e-015
1.99526231496886e+005	7.28434014707411e-015,7.28848810534084e-016
2.23872113856832e+005	5.80152041049860e-015,4.90553684086411e-016
2.51188643150955e+005	4.61782820072734e-015,3.24104225886290e-016
2.81838293126442e+005	3.67387608737587e-015,2.08499591997773e-016
3.16227766016835e+005	2.92171462819849e-015,1.28776449654027e-016
3.54813389233572e+005	2.32276075612701e-015,7.42984268667342e-017
3.98107170553493e+005	1.84605137593691e-015,3.75211982923466e-017
4.46683592150958e+005	1.46679113725070e-015,1.31046980677518e-017
5.01187233627267e+005	1.16515717391618e-015,-2.72297073778892e-018
5.62341325190343e+005	9.25323000081866e-016,-1.26200545466697e-017
6.30957344480186e+005	7.34666153938970e-016,-1.84552094059155e-017
7.07945784384130e+005	5.83127984758619e-016,-2.15381267054735e-017
7.94328234724273e+005	4.62698240705186e-016,-2.27834114225758e-017
8.91250938133736e+005	3.67001304016834e-016,-2.28268752087372e-017
1.00000000000000e+006	2.90964765812637e-016,-2.21079621026725e-017
