Freq.	V(vout)
1.00000000000000e-001	-6.60302919066499e-014,-2.78214767283624e-012
1.12201845430196e-001	-8.31163321782799e-014,-3.12118833814833e-012
1.25892541179417e-001	-1.04620023719027e-013,-3.50141989820197e-012
1.41253754462275e-001	-1.31681494520358e-013,-3.92779497650731e-012
1.58489319246111e-001	-1.65733913293613e-013,-4.40584032529135e-012
1.77827941003892e-001	-2.08578102340994e-013,-4.94171451220766e-012
1.99526231496888e-001	-2.62475736025124e-013,-5.54226760881657e-012
2.23872113856834e-001	-3.30265512681560e-013,-6.21510109734106e-012
2.51188643150958e-001	-4.15507580853577e-013,-6.96862519670874e-012
2.81838293126445e-001	-5.22662486950690e-013,-7.81210936984684e-012
3.16227766016838e-001	-6.57311939794169e-013,-8.75571975861425e-012
3.54813389233575e-001	-8.26429652418777e-013,-9.81053450368381e-012
3.98107170553497e-001	-1.03871123247590e-012,-1.09885240993323e-011
4.46683592150963e-001	-1.30497222271822e-012,-1.23024788190622e-011
5.01187233627272e-001	-1.63862241230270e-012,-1.37658585171212e-011
5.62341325190348e-001	-2.05622162014467e-012,-1.53925314875478e-011
6.30957344480192e-001	-2.57811605091461e-012,-1.71963584216047e-011
7.07945784384137e-001	-3.22914326410513e-012,-1.91905650911615e-011
7.94328234724280e-001	-4.03937537140288e-012,-2.13868341890579e-011
8.91250938133744e-001	-5.04484129994942e-012,-2.37940351066669e-011
9.99999999999999e-001	-6.28812662001235e-012,-2.64165048490520e-011
1.12201845430196e+000	-7.81869109365169e-012,-2.92518015691816e-011
1.25892541179417e+000	-9.69267015283929e-012,-3.22878863948568e-011
1.41253754462275e+000	-1.19718438156584e-011,-3.54997658036633e-011
1.58489319246111e+000	-1.47213837360250e-011,-3.88457645202171e-011
1.77827941003892e+000	-1.80059625823346e-011,-4.22638119575399e-011
1.99526231496888e+000	-2.18838871599696e-011,-4.56684092441200e-011
2.23872113856834e+000	-2.63991691733888e-011,-4.89492545135604e-011
2.51188643150958e+000	-3.15719339826454e-011,-5.19727347159933e-011
2.81838293126445e+000	-3.73882805849997e-011,-5.45874693349663e-011
3.16227766016837e+000	-4.37915033341037e-011,-5.66346181750459e-011
3.54813389233575e+000	-5.06771539773926e-011,-5.79626342029311e-011
3.98107170553496e+000	-5.78943433348101e-011,-5.84446907437150e-011
4.46683592150962e+000	-6.52546484350876e-011,-5.79956145695163e-011
5.01187233627271e+000	-7.25480953438205e-011,-5.65845048350644e-011
5.62341325190348e+000	-7.95635589413803e-011,-5.42398506866310e-011
6.30957344480192e+000	-8.61094951039120e-011,-5.10458389949107e-011
7.07945784384136e+000	-9.20309002575315e-011,-4.71309387607384e-011
7.94328234724279e+000	-9.72197734642868e-011,-4.26517186687422e-011
8.91250938133743e+000	-1.01618420391600e-010,-3.77754705874949e-011
9.99999999999997e+000	-1.05216728651347e-010,-3.26645508043555e-011
1.12201845430196e+001	-1.08045419080950e-010,-2.74639913716817e-011
1.25892541179416e+001	-1.10167169233216e-010,-2.22926273520090e-011
1.41253754462275e+001	-1.11666798641332e-010,-1.72372507725046e-011
1.58489319246111e+001	-1.12640938113029e-010,-1.23492583744445e-011
1.77827941003892e+001	-1.13187198265771e-010,-7.64368679816221e-012
1.99526231496887e+001	-1.13392965025087e-010,-3.10103719966594e-012
2.23872113856833e+001	-1.13324466174296e-010,1.32748096291338e-012
2.51188643150957e+001	-1.13017377712174e-010,5.71089903828429e-012
2.81838293126444e+001	-1.12470648523443e-010,1.01259215220519e-011
3.16227766016837e+001	-1.11645191283962e-010,1.46420482741333e-011
3.54813389233574e+001	-1.10468529859262e-010,1.93064793015836e-011
3.98107170553496e+001	-1.08845447578488e-010,2.41314685967572e-011
4.46683592150961e+001	-1.06673321461836e-010,2.90867830017870e-011
5.01187233627270e+001	-1.03859503712417e-010,3.40991376570623e-011
5.62341325190347e+001	-1.00337312571174e-010,3.90589632589304e-011
6.30957344480191e+001	-9.60773605146231e-011,4.38330021347875e-011
7.07945784384135e+001	-9.10921969774699e-011,4.82796981711586e-011
7.94328234724278e+001	-8.54342041312138e-011,5.22637974135932e-011
8.91250938133742e+001	-7.91885931543420e-011,5.56672954985527e-011
9.99999999999995e+001	-7.24644003053201e-011,5.83955540711067e-011
1.12201845430196e+002	-6.53861637026295e-011,6.03792795200455e-011
1.25892541179416e+002	-5.80876963870951e-011,6.15742532860069e-011
1.41253754462275e+002	-5.07077975083863e-011,6.19607573930508e-011
1.58489319246111e+002	-4.33866833335033e-011,6.15437201458410e-011
1.77827941003891e+002	-3.62618145712769e-011,6.03533697601610e-011
1.99526231496887e+002	-2.94625071786644e-011,5.84453432022544e-011
2.23872113856833e+002	-2.31036906349538e-011,5.58991167171497e-011
2.51188643150957e+002	-1.72798534251308e-011,5.28141760189061e-011
2.81838293126444e+002	-1.20603356883060e-011,4.93041012214485e-011
3.16227766016836e+002	-7.48680509739442e-012,4.54893136004611e-011
3.54813389233574e+002	-3.57326124743833e-012,4.14894740698314e-011
3.98107170553495e+002	-3.08464025089014e-013,3.74165067522759e-011
4.46683592150961e+002	2.33966836405328e-012,3.33690631520146e-011
5.01187233627270e+002	4.41840956309775e-012,2.94289963286519e-011
5.62341325190346e+002	5.98420772074140e-012,2.56600821475812e-011
6.30957344480190e+002	7.09720167575488e-012,2.21088292952645e-011
7.07945784384134e+002	7.81699620638724e-012,1.88068415594894e-011
7.94328234724277e+002	8.20007401937955e-012,1.57739452011467e-011
8.91250938133740e+002	8.29879337204372e-012,1.30212558276717e-011
9.99999999999994e+002	8.16154160465693e-012,1.05535488508574e-011
1.12201845430196e+003	7.83340644541633e-012,8.37064996052031e-012
1.25892541179416e+003	7.35674950070604e-012,6.46795111289868e-012
1.41253754462275e+003	6.77129391571752e-012,4.83644413088643e-012
1.58489319246110e+003	6.11366603885223e-012,3.46275291829246e-012
1.77827941003891e+003	5.41661996391046e-012,2.32952613673929e-012
1.99526231496887e+003	4.70831251039133e-012,1.41630153392043e-012
2.23872113856832e+003	4.01194826438284e-012,7.00695031659653e-013
2.51188643150956e+003	3.34592787445079e-012,1.59614197884506e-013
2.81838293126443e+003	2.72440919313578e-012,-2.29801251431131e-013
3.16227766016836e+003	2.15803334913406e-012,-4.89672373006337e-013
3.54813389233573e+003	1.65453741332948e-012,-6.41274002099147e-013
3.98107170553494e+003	1.21907082392937e-012,-7.05135577624972e-013
4.46683592150960e+003	8.54198687604093e-013,-7.01099714451479e-013
5.01187233627269e+003	5.59730983870872e-013,-6.48146573228062e-013
5.62341325190345e+003	3.32595454570480e-013,-5.63927611743874e-013
6.30957344480189e+003	1.66949697176655e-013,-4.64096950322736e-013
7.07945784384133e+003	5.46295139603770e-014,-3.61620919153236e-013
7.94328234724276e+003	-1.40914617120299e-014,-2.66259806506939e-013
8.91250938133739e+003	-4.95522372831699e-014,-1.84362580943490e-013
9.99999999999992e+003	-6.17323026440501e-014,-1.19029028975823e-013
1.12201845430195e+004	-5.94201575007445e-014,-7.06071427976048e-014
1.25892541179416e+004	-4.96459660115144e-014,-3.74265648252299e-014
1.41253754462274e+004	-3.74408966687688e-014,-1.66296252601930e-014
1.58489319246110e+004	-2.59162038054871e-014,-4.95355706443380e-015
1.77827941003891e+004	-1.65904958889556e-014,6.57491067404483e-016
1.99526231496886e+004	-9.85037680356106e-015,2.67859768906923e-015
2.23872113856832e+004	-5.42130222892852e-015,2.86996447742760e-015
2.51188643150956e+004	-2.75330412114958e-015,2.32767485032469e-015
2.81838293126443e+004	-1.27586589740484e-015,1.63650292064706e-015
3.16227766016835e+004	-5.25288185663226e-016,1.04681679860873e-015
3.54813389233572e+004	-1.78719589366822e-016,6.24296237769118e-016
3.98107170553494e+004	-3.68654481976111e-017,3.52407321318801e-016
4.46683592150959e+004	1.10870620792964e-017,1.90312753862859e-016
5.01187233627268e+004	2.09522569034093e-017,9.91292298003492e-017
5.62341325190344e+004	1.80834716980225e-017,5.01275363214233e-017
6.30957344480187e+004	1.26393638869333e-017,2.47400869643527e-017
7.07945784384131e+004	7.96461816287195e-018,1.19694544644179e-017
7.94328234724274e+004	4.71468636731180e-018,5.69709503708786e-018
8.91250938133737e+004	2.67666869697925e-018,2.67552000547836e-018
9.99999999999990e+004	1.47530651669767e-018,1.24268743783738e-018
1.12201845430195e+005	7.95670705162127e-019,5.71907781898598e-019
1.25892541179415e+005	4.22177721518007e-019,2.61172997674643e-019
1.41253754462274e+005	2.21232197086742e-019,1.18477320912010e-019
1.58489319246110e+005	1.14823197033579e-019,5.34279454741354e-020
1.77827941003891e+005	5.91518437462705e-020,2.39615353389210e-020
1.99526231496886e+005	3.02950486259546e-020,1.06887755213492e-020
2.23872113856832e+005	1.54448448551183e-020,4.74158999297531e-021
2.51188643150955e+005	7.84557600109212e-021,2.09055605367321e-021
2.81838293126442e+005	3.97395172114337e-021,9.15186070665122e-022
3.16227766016835e+005	2.00831358143214e-021,3.97176222762768e-022
3.54813389233572e+005	1.01309449946114e-021,1.70468553588778e-022
3.98107170553493e+005	5.10307311614338e-022,7.20965330292225e-023
4.46683592150958e+005	2.56741229166256e-022,2.98768689214882e-023
5.01187233627267e+005	1.29042143995192e-022,1.20192994297188e-023
5.62341325190343e+005	6.48046967960302e-023,4.61730805978109e-024
6.30957344480186e+005	3.25212823815207e-023,1.63814564871158e-024
7.07945784384130e+005	1.63096848975684e-023,4.92726873323667e-025
7.94328234724273e+005	8.17439411662908e-024,8.57107968691414e-026
8.91250938133736e+005	4.09448116045207e-024,-3.71640739762487e-026
1.00000000000000e+006	2.04956994207890e-024,-5.89082177479465e-026
